T0FE4 000:005.583   SEGGER J-Link V7.82 Log File
T0FE4 000:006.301   DLL Compiled: Oct 13 2022 13:32:51
T0FE4 000:006.763   Logging started @ 2026-09-09 10:18
T0FE4 000:007.214 - 7.443ms
T0FE4 000:007.683 JLINK_SetWarnOutHandler(...)
T0FE4 000:008.193 - 0.738ms
T0FE4 000:008.660 JLINK_OpenEx(...)
T0FE4 000:011.228   Firmware: J-Link V9 compiled May  7 2021 16:26:12
T0FE4 000:013.225   Firmware: J-Link V9 compiled May  7 2021 16:26:12
T0FE4 000:014.620   Decompressing FW timestamp took 128 us
T0FE4 000:024.960   Hardware: V9.40
T0FE4 000:025.999   S/N: 69405718
T0FE4 000:026.910   OEM: SEGGER
T0FE4 000:027.595   Feature(s): RDI, GDB, FlashDL, FlashBP, JFlash
T0FE4 000:030.263   TELNET listener socket opened on port 19021
T0FE4 000:031.513   WEBSRV WEBSRV_Init(): Starting webserver thread(s)
T0FE4 000:032.863   WEBSRV Webserver running on local port 19080
T0FE4 000:046.003 - 37.694ms returns "O.K."
T0FE4 000:046.711 JLINK_GetEmuCaps()
T0FE4 000:047.399 - 0.925ms returns 0xB9FF7BBF
T0FE4 000:047.885 JLINK_TIF_GetAvailable(...)
T0FE4 000:048.628 - 0.908ms
T0FE4 000:048.985 JLINK_SetErrorOutHandler(...)
T0FE4 000:049.324 - 0.517ms
T0FE4 000:049.707 JLINK_ExecCommand("ProjectFile = "\\192.168.122.1\My_Project\Smart_Watch\03_Firmware\FreeRtos_Basic_Environment\MDK-ARM\JLinkSettings.ini"", ...). 
T0FE4 000:063.435   Ref file found at: C:\Keil_v5\ARM\Segger\JLinkDevices.ref
T0FE4 000:064.591   REF file references invalid XML file: C:\Program Files\SEGGER\JLink\JLinkDevices.xml
T0FE4 000:065.579 - 16.173ms returns 0x00
T0FE4 000:067.618 JLINK_ExecCommand("Device = STM32F411CEUx", ...). 
T0FE4 000:070.165   Device "STM32F411CE" selected.
T0FE4 000:071.372 - 3.196ms returns 0x00
T0FE4 000:071.892 JLINK_ExecCommand("DisableConnectionTimeout", ...). 
T0FE4 000:072.367 - 0.245ms returns 0x01
T0FE4 000:072.832 JLINK_GetHardwareVersion()
T0FE4 000:073.250 - 0.623ms returns 94000
T0FE4 000:073.687 JLINK_GetDLLVersion()
T0FE4 000:074.368 - 0.929ms returns 78200
T0FE4 000:074.854 JLINK_GetOEMString(...)
T0FE4 000:075.296 JLINK_GetFirmwareString(...)
T0FE4 000:075.717 - 0.634ms
T0FE4 000:080.612 JLINK_GetDLLVersion()
T0FE4 000:081.274 - 0.904ms returns 78200
T0FE4 000:081.803 JLINK_GetCompileDateTime()
T0FE4 000:082.325 - 0.744ms
T0FE4 000:086.374 JLINK_GetFirmwareString(...)
T0FE4 000:086.970 - 0.894ms
T0FE4 000:090.587 JLINK_GetHardwareVersion()
T0FE4 000:091.137 - 0.772ms returns 94000
T0FE4 000:094.900 JLINK_GetSN()
T0FE4 000:096.192 - 3.520ms returns 69405718
T0FE4 000:102.129 JLINK_GetOEMString(...)
T0FE4 000:109.222 JLINK_TIF_Select(JLINKARM_TIF_SWD)
T0FE4 000:110.834 - 2.139ms returns 0x00
T0FE4 000:112.263 JLINK_HasError()
T0FE4 000:113.266 JLINK_SetSpeed(1000)
T0FE4 000:114.211 - 1.335ms
T0FE4 000:114.843 JLINK_GetId()
T0FE4 000:119.415   InitTarget() start
T0FE4 000:120.237    J-Link Script File: Executing InitTarget()
T0FE4 000:136.190   InitTarget() end
T0FE4 000:141.330   Found SW-DP with ID 0x2BA01477
T0FE4 000:149.483   DPIDR: 0x2BA01477
T0FE4 000:153.562   CoreSight SoC-400 or earlier
T0FE4 000:158.011   Scanning AP map to find all available APs
T0FE4 000:166.316   AP[1]: Stopped AP scan as end of AP map has been reached
T0FE4 000:170.733   AP[0]: AHB-AP (IDR: 0x24770011)
T0FE4 000:175.263   Iterating through AP map to find AHB-AP to use
T0FE4 000:181.183   AP[0]: Core found
T0FE4 000:185.903   AP[0]: AHB-AP ROM base: 0xE00FF000
T0FE4 000:192.213   CPUID register: 0x410FC241. Implementer code: 0x41 (ARM)
T0FE4 000:196.264   Found Cortex-M4 r0p1, Little endian.
T0FE4 000:197.672   -- Max. mem block: 0x00010AA0
T0FE4 000:198.553   CPU_ReadMem(4 bytes @ 0xE000EDF0)
T0FE4 000:199.912   CPU_ReadMem(4 bytes @ 0xE0002000)
T0FE4 000:204.550   FPUnit: 6 code (BP) slots and 2 literal slots
T0FE4 000:205.340   CPU_ReadMem(4 bytes @ 0xE000EDFC)
T0FE4 000:207.321   CPU_WriteMem(4 bytes @ 0xE000EDFC)
T0FE4 000:209.000   CPU_ReadMem(4 bytes @ 0xE0001000)
T0FE4 000:210.384   CPU_WriteMem(4 bytes @ 0xE0001000)
T0FE4 000:211.719   CPU_ReadMem(4 bytes @ 0xE000ED88)
T0FE4 000:213.118   CPU_WriteMem(4 bytes @ 0xE000ED88)
T0FE4 000:214.784   CPU_ReadMem(4 bytes @ 0xE000ED88)
T0FE4 000:216.289   CPU_WriteMem(4 bytes @ 0xE000ED88)
T0FE4 000:221.397   CoreSight components:
T0FE4 000:225.504   ROMTbl[0] @ E00FF000
T0FE4 000:227.194   CPU_ReadMem(64 bytes @ 0xE00FF000)
T0FE4 000:229.784   CPU_ReadMem(32 bytes @ 0xE000EFE0)
T0FE4 000:235.204   [0][0]: E000E000 CID B105E00D PID 000BB00C SCS-M7
T0FE4 000:236.021   CPU_ReadMem(32 bytes @ 0xE0001FE0)
T0FE4 000:241.553   [0][1]: E0001000 CID B105E00D PID 003BB002 DWT
T0FE4 000:242.522   CPU_ReadMem(32 bytes @ 0xE0002FE0)
T0FE4 000:248.316   [0][2]: E0002000 CID B105E00D PID 002BB003 FPB
T0FE4 000:249.405   CPU_ReadMem(32 bytes @ 0xE0000FE0)
T0FE4 000:255.520   [0][3]: E0000000 CID B105E00D PID 003BB001 ITM
T0FE4 000:256.567   CPU_ReadMem(32 bytes @ 0xE0040FE0)
T0FE4 000:262.049   [0][4]: E0040000 CID B105900D PID 000BB9A1 TPIU
T0FE4 000:263.006   CPU_ReadMem(32 bytes @ 0xE0041FE0)
T0FE4 000:268.573   [0][5]: E0041000 CID B105900D PID 000BB925 ETM
T0FE4 000:270.879 - 156.334ms returns 0x2BA01477
T0FE4 000:271.356 JLINK_GetDLLVersion()
T0FE4 000:271.787 - 0.664ms returns 78200
T0FE4 000:272.261 JLINK_CORE_GetFound()
T0FE4 000:272.737 - 0.705ms returns 0xE0000FF
T0FE4 000:273.206 JLINK_GetDebugInfo(0x100 = JLINKARM_ROM_TABLE_ADDR_INDEX)
T0FE4 000:273.686   Value=0xE00FF000
T0FE4 000:274.375 - 1.384ms returns 0
T0FE4 000:278.343 JLINK_GetDebugInfo(0x100 = JLINKARM_ROM_TABLE_ADDR_INDEX)
T0FE4 000:279.003   Value=0xE00FF000
T0FE4 000:279.724 - 1.629ms returns 0
T0FE4 000:280.210 JLINK_GetDebugInfo(0x101 = JLINKARM_DEBUG_INFO_ETM_ADDR_INDEX)
T0FE4 000:280.752   Value=0xE0041000
T0FE4 000:281.403 - 1.414ms returns 0
T0FE4 000:281.849 JLINK_ReadMemEx(0xE0041FD0, 0x20 Bytes, Flags = 0x02000004)
T0FE4 000:282.318   CPU_ReadMem(32 bytes @ 0xE0041FD0)
T0FE4 000:284.303   Data:  04 00 00 00 00 00 00 00 00 00 00 00 00 00 00 00 ...
T0FE4 000:285.011 - 3.679ms returns 32 (0x20)
T0FE4 000:286.572 JLINK_GetDebugInfo(0x102 = JLINKARM_DEBUG_INFO_MTB_ADDR_INDEX)
T0FE4 000:287.115   Value=0x00000000
T0FE4 000:287.836 - 1.520ms returns 0
T0FE4 000:288.331 JLINK_GetDebugInfo(0x103 = JLINKARM_DEBUG_INFO_TPIU_ADDR_INDEX)
T0FE4 000:288.793   Value=0xE0040000
T0FE4 000:289.518 - 1.414ms returns 0
T0FE4 000:289.978 JLINK_GetDebugInfo(0x104 = JLINKARM_DEBUG_INFO_ITM_ADDR_INDEX)
T0FE4 000:290.428   Value=0xE0000000
T0FE4 000:291.138 - 1.386ms returns 0
T0FE4 000:291.597 JLINK_GetDebugInfo(0x105 = JLINKARM_DEBUG_INFO_DWT_ADDR_INDEX)
T0FE4 000:292.060   Value=0xE0001000
T0FE4 000:292.750 - 1.389ms returns 0
T0FE4 000:293.202 JLINK_GetDebugInfo(0x106 = JLINKARM_DEBUG_INFO_FPB_ADDR_INDEX)
T0FE4 000:293.619   Value=0xE0002000
T0FE4 000:294.259 - 1.282ms returns 0
T0FE4 000:294.722 JLINK_GetDebugInfo(0x107 = JLINKARM_DEBUG_INFO_NVIC_ADDR_INDEX)
T0FE4 000:295.148   Value=0xE000E000
T0FE4 000:295.954 - 1.603ms returns 0
T0FE4 000:296.512 JLINK_GetDebugInfo(0x10C = JLINKARM_DEBUG_INFO_DBG_ADDR_INDEX)
T0FE4 000:297.234   Value=0xE000EDF0
T0FE4 000:297.793 - 1.492ms returns 0
T0FE4 000:298.237 JLINK_GetDebugInfo(0x01 = Unknown)
T0FE4 000:298.664   Value=0x00000001
T0FE4 000:299.319 - 1.289ms returns 0
T0FE4 000:299.736 JLINK_ReadMemU32(0xE000ED00, 0x1 Items)
T0FE4 000:300.175   CPU_ReadMem(4 bytes @ 0xE000ED00)
T0FE4 000:301.572   Data:  41 C2 0F 41
T0FE4 000:302.249   Debug reg: CPUID
T0FE4 000:302.865 - 3.337ms returns 1 (0x1)
T0FE4 000:303.292 JLINK_GetDebugInfo(0x10F = JLINKARM_DEBUG_INFO_HAS_CORTEX_M_SECURITY_EXT_INDEX)
T0FE4 000:303.720   Value=0x00000000
T0FE4 000:304.378 - 1.323ms returns 0
T0FE4 000:304.831 JLINK_HasError()
T0FE4 000:305.263 JLINK_SetResetType(JLINKARM_CM3_RESET_TYPE_NORMAL)
T0FE4 000:305.697 - 0.639ms returns JLINKARM_CM3_RESET_TYPE_NORMAL
T0FE4 000:306.117 JLINK_Reset()
T0FE4 000:306.578   CPU is running
T0FE4 000:307.452   CPU_WriteMem(4 bytes @ 0xE000EDF0)
T0FE4 000:309.513   CPU is running
T0FE4 000:310.296   CPU_WriteMem(4 bytes @ 0xE000EDFC)
T0FE4 000:315.995   Reset: Halt core after reset via DEMCR.VC_CORERESET.
T0FE4 000:321.016   Reset: Reset device via AIRCR.SYSRESETREQ.
T0FE4 000:321.821   CPU is running
T0FE4 000:322.569   CPU_WriteMem(4 bytes @ 0xE000ED0C)
T0FE4 000:376.891   CPU_ReadMem(4 bytes @ 0xE000EDF0)
T0FE4 000:378.648   CPU_ReadMem(4 bytes @ 0xE000EDF0)
T0FE4 000:379.947   CPU is running
T0FE4 000:380.663   CPU_WriteMem(4 bytes @ 0xE000EDF0)
T0FE4 000:382.054   CPU is running
T0FE4 000:382.704   CPU_WriteMem(4 bytes @ 0xE000EDFC)
T0FE4 000:390.134   CPU_ReadMem(4 bytes @ 0xE000EDF0)
T0FE4 000:400.629   CPU_WriteMem(4 bytes @ 0xE0002000)
T0FE4 000:402.390   CPU_ReadMem(4 bytes @ 0xE000EDFC)
T0FE4 000:403.845   CPU_ReadMem(4 bytes @ 0xE0001000)
T0FE4 000:405.258 - 99.411ms
T0FE4 000:405.773 JLINK_Halt()
T0FE4 000:406.292 - 0.748ms returns 0x00
T0FE4 000:406.872 JLINK_ReadMemU32(0xE000EDF0, 0x1 Items)
T0FE4 000:407.427   CPU_ReadMem(4 bytes @ 0xE000EDF0)
T0FE4 000:408.929   Data:  03 00 03 00
T0FE4 000:409.624   Debug reg: DHCSR
T0FE4 000:410.172 - 3.509ms returns 1 (0x1)
T0FE4 000:410.614 JLINK_WriteU32_64(0xE000EDF0, 0xA05F0003)
T0FE4 000:411.045   Debug reg: DHCSR
T0FE4 000:411.933   CPU_WriteMem(4 bytes @ 0xE000EDF0)
T0FE4 000:413.391 - 2.994ms returns 0 (0x00000000)
T0FE4 000:413.793 JLINK_WriteU32_64(0xE000EDFC, 0x01000000)
T0FE4 000:414.125   Debug reg: DEMCR
T0FE4 000:414.680   CPU_WriteMem(4 bytes @ 0xE000EDFC)
T0FE4 000:416.077 - 2.499ms returns 0 (0x00000000)
T0FE4 000:428.807 JLINK_GetHWStatus(...)
T0FE4 000:429.718 - 1.154ms returns 0
T0FE4 000:439.128 JLINK_GetNumBPUnits(Type = 0xFFFFFF00)
T0FE4 000:439.830 - 0.920ms returns 0x06
T0FE4 000:440.222 JLINK_GetNumBPUnits(Type = 0xF0)
T0FE4 000:440.559 - 0.499ms returns 0x2000
T0FE4 000:440.882 JLINK_GetNumWPUnits()
T0FE4 000:441.342 - 0.677ms returns 4
T0FE4 000:451.063 JLINK_GetSpeed()
T0FE4 000:451.742 - 0.928ms returns 1000
T0FE4 000:458.070 JLINK_ReadMemU32(0xE000E004, 0x1 Items)
T0FE4 000:458.635   CPU_ReadMem(4 bytes @ 0xE000E004)
T0FE4 000:460.172   Data:  02 00 00 00
T0FE4 000:460.944 - 3.095ms returns 1 (0x1)
T0FE4 000:461.383 JLINK_ReadMemU32(0xE000E004, 0x1 Items)
T0FE4 000:461.846   CPU_ReadMem(4 bytes @ 0xE000E004)
T0FE4 000:463.249   Data:  02 00 00 00
T0FE4 000:463.959 - 2.766ms returns 1 (0x1)
T0FE4 000:464.321 JLINK_WriteMemEx(0xE0001000, 0x0000001C Bytes, Flags = 0x02000004)
T0FE4 000:464.845   Data:  01 00 00 00 00 00 00 00 00 00 00 00 00 00 00 00 ...
T0FE4 000:465.509   CPU_WriteMem(28 bytes @ 0xE0001000)
T0FE4 000:467.392 - 3.297ms returns 0x1C
T0FE4 000:467.790 JLINK_Halt()
T0FE4 000:468.209 - 0.639ms returns 0x00
T0FE4 000:468.656 JLINK_IsHalted()
T0FE4 000:469.104 - 0.666ms returns TRUE
T0FE4 000:472.011 JLINK_WriteMem(0x20000000, 0x184 Bytes, ...)
T0FE4 000:472.496   Data:  00 BE 0A E0 0D 78 2D 06 68 40 08 24 40 00 00 D3 ...
T0FE4 000:473.284   CPU_WriteMem(388 bytes @ 0x20000000)
T0FE4 000:482.085 - 10.395ms returns 0x184
T0FE4 000:482.770 JLINK_HasError()
T0FE4 000:483.257 JLINK_WriteReg(R0, 0x08000000)
T0FE4 000:483.729 - 0.691ms returns 0
T0FE4 000:484.179 JLINK_WriteReg(R1, 0x017D7840)
T0FE4 000:484.627 - 0.668ms returns 0
T0FE4 000:485.060 JLINK_WriteReg(R2, 0x00000001)
T0FE4 000:485.508 - 0.663ms returns 0
T0FE4 000:485.943 JLINK_WriteReg(R3, 0x00000000)
T0FE4 000:486.390 - 0.665ms returns 0
T0FE4 000:486.818 JLINK_WriteReg(R4, 0x00000000)
T0FE4 000:487.292 - 0.682ms returns 0
T0FE4 000:487.692 JLINK_WriteReg(R5, 0x00000000)
T0FE4 000:488.592 - 1.120ms returns 0
T0FE4 000:489.096 JLINK_WriteReg(R6, 0x00000000)
T0FE4 000:489.665 - 0.850ms returns 0
T0FE4 000:490.417 JLINK_WriteReg(R7, 0x00000000)
T0FE4 000:490.932 - 0.783ms returns 0
T0FE4 000:491.481 JLINK_WriteReg(R8, 0x00000000)
T0FE4 000:492.071 - 0.794ms returns 0
T0FE4 000:492.488 JLINK_WriteReg(R9, 0x20000180)
T0FE4 000:492.920 - 0.647ms returns 0
T0FE4 000:493.352 JLINK_WriteReg(R10, 0x00000000)
T0FE4 000:493.805 - 0.664ms returns 0
T0FE4 000:494.250 JLINK_WriteReg(R11, 0x00000000)
T0FE4 000:494.659 - 0.621ms returns 0
T0FE4 000:495.111 JLINK_WriteReg(R12, 0x00000000)
T0FE4 000:495.543 - 0.643ms returns 0
T0FE4 000:495.997 JLINK_WriteReg(R13 (SP), 0x20001000)
T0FE4 000:496.519 - 0.805ms returns 0
T0FE4 000:497.065 JLINK_WriteReg(R14, 0x20000001)
T0FE4 000:497.519 - 0.615ms returns 0
T0FE4 000:497.953 JLINK_WriteReg(R15 (PC), 0x20000054)
T0FE4 000:498.376 - 0.648ms returns 0
T0FE4 000:498.804 JLINK_WriteReg(XPSR, 0x01000000)
T0FE4 000:499.254 - 0.653ms returns 0
T0FE4 000:499.698 JLINK_WriteReg(MSP, 0x20001000)
T0FE4 000:500.208 - 0.794ms returns 0
T0FE4 000:500.720 JLINK_WriteReg(PSP, 0x20001000)
T0FE4 000:501.162 - 0.665ms returns 0
T0FE4 000:501.593 JLINK_WriteReg(CFBP, 0x00000000)
T0FE4 000:502.016 - 0.725ms returns 0
T0FE4 000:502.514 JLINK_SetBPEx(Addr = 0x20000000, Type = 0xFFFFFFF2)
T0FE4 000:502.979   CPU_ReadMem(2 bytes @ 0x20000000)
T0FE4 000:504.387 - 2.094ms returns 0x00000001
T0FE4 000:504.872 JLINK_Go()
T0FE4 000:505.253   CPU_WriteMem(2 bytes @ 0x20000000)
T0FE4 000:506.600   CPU_ReadMem(4 bytes @ 0xE0001000)
T0FE4 000:507.925   CPU_WriteMem(4 bytes @ 0xE0002008)
T0FE4 000:508.539   CPU_WriteMem(4 bytes @ 0xE000200C)
T0FE4 000:509.178   CPU_WriteMem(4 bytes @ 0xE0002010)
T0FE4 000:509.804   CPU_WriteMem(4 bytes @ 0xE0002014)
T0FE4 000:510.566   CPU_WriteMem(4 bytes @ 0xE0002018)
T0FE4 000:511.205   CPU_WriteMem(4 bytes @ 0xE000201C)
T0FE4 000:515.330   CPU_WriteMem(4 bytes @ 0xE0001004)
T0FE4 000:524.945 - 20.434ms
T0FE4 000:525.648 JLINK_IsHalted()
T0FE4 000:535.093   CPU_ReadMem(2 bytes @ 0x20000000)
T0FE4 000:536.596 - 11.168ms returns TRUE
T0FE4 000:537.107 JLINK_ReadReg(R15 (PC))
T0FE4 000:537.500 - 0.597ms returns 0x20000000
T0FE4 000:537.950 JLINK_ClrBPEx(BPHandle = 0x00000001)
T0FE4 000:538.238 - 0.502ms returns 0x00
T0FE4 000:538.685 JLINK_ReadReg(R0)
T0FE4 000:539.123 - 0.664ms returns 0x00000000
T0FE4 000:539.967 JLINK_HasError()
T0FE4 000:540.405 JLINK_WriteReg(R0, 0x08000000)
T0FE4 000:540.834 - 0.714ms returns 0
T0FE4 000:541.393 JLINK_WriteReg(R1, 0x00004000)
T0FE4 000:541.890 - 0.745ms returns 0
T0FE4 000:542.389 JLINK_WriteReg(R2, 0x000000FF)
T0FE4 000:542.817 - 0.639ms returns 0
T0FE4 000:543.271 JLINK_WriteReg(R3, 0x00000000)
T0FE4 000:543.683 - 0.628ms returns 0
T0FE4 000:544.114 JLINK_WriteReg(R4, 0x00000000)
T0FE4 000:544.593 - 0.683ms returns 0
T0FE4 000:545.036 JLINK_WriteReg(R5, 0x00000000)
T0FE4 000:545.462 - 0.640ms returns 0
T0FE4 000:545.892 JLINK_WriteReg(R6, 0x00000000)
T0FE4 000:546.330 - 0.640ms returns 0
T0FE4 000:546.767 JLINK_WriteReg(R7, 0x00000000)
T0FE4 000:547.196 - 0.685ms returns 0
T0FE4 000:547.672 JLINK_WriteReg(R8, 0x00000000)
T0FE4 000:548.148 - 0.682ms returns 0
T0FE4 000:548.589 JLINK_WriteReg(R9, 0x20000180)
T0FE4 000:549.004 - 0.622ms returns 0
T0FE4 000:549.422 JLINK_WriteReg(R10, 0x00000000)
T0FE4 000:549.851 - 0.634ms returns 0
T0FE4 000:550.287 JLINK_WriteReg(R11, 0x00000000)
T0FE4 000:550.701 - 0.619ms returns 0
T0FE4 000:551.247 JLINK_WriteReg(R12, 0x00000000)
T0FE4 000:551.699 - 0.669ms returns 0
T0FE4 000:552.165 JLINK_WriteReg(R13 (SP), 0x20001000)
T0FE4 000:552.588 - 0.617ms returns 0
T0FE4 000:552.992 JLINK_WriteReg(R14, 0x20000001)
T0FE4 000:553.436 - 0.638ms returns 0
T0FE4 000:553.863 JLINK_WriteReg(R15 (PC), 0x20000020)
T0FE4 000:554.567 - 0.896ms returns 0
T0FE4 000:555.009 JLINK_WriteReg(XPSR, 0x01000000)
T0FE4 000:555.436 - 0.689ms returns 0
T0FE4 000:555.966 JLINK_WriteReg(MSP, 0x20001000)
T0FE4 000:556.456 - 0.727ms returns 0
T0FE4 000:556.935 JLINK_WriteReg(PSP, 0x20001000)
T0FE4 000:557.422 - 0.730ms returns 0
T0FE4 000:557.925 JLINK_WriteReg(CFBP, 0x00000000)
T0FE4 000:558.411 - 0.721ms returns 0
T0FE4 000:558.887 JLINK_SetBPEx(Addr = 0x20000000, Type = 0xFFFFFFF2)
T0FE4 000:559.381 - 0.730ms returns 0x00000002
T0FE4 000:559.913 JLINK_Go()
T0FE4 000:560.409   CPU_ReadMem(4 bytes @ 0xE0001000)
T0FE4 000:570.366 - 10.781ms
T0FE4 000:571.035 JLINK_IsHalted()
T0FE4 000:580.715   CPU_ReadMem(2 bytes @ 0x20000000)
T0FE4 000:582.547 - 11.739ms returns TRUE
T0FE4 000:583.028 JLINK_ReadReg(R15 (PC))
T0FE4 000:583.567 - 0.783ms returns 0x20000000
T0FE4 000:584.105 JLINK_ClrBPEx(BPHandle = 0x00000002)
T0FE4 000:584.579 - 0.723ms returns 0x00
T0FE4 000:585.168 JLINK_ReadReg(R0)
T0FE4 000:585.659 - 0.746ms returns 0x00000001
T0FE4 000:586.236 JLINK_HasError()
T0FE4 000:586.816 JLINK_WriteReg(R0, 0x08000000)
T0FE4 000:587.451 - 0.908ms returns 0
T0FE4 000:587.970 JLINK_WriteReg(R1, 0x00004000)
T0FE4 000:588.496 - 0.777ms returns 0
T0FE4 000:589.002 JLINK_WriteReg(R2, 0x000000FF)
T0FE4 000:589.577 - 0.749ms returns 0
T0FE4 000:589.924 JLINK_WriteReg(R3, 0x00000000)
T0FE4 000:590.284 - 0.527ms returns 0
T0FE4 000:590.634 JLINK_WriteReg(R4, 0x00000000)
T0FE4 000:591.168 - 0.742ms returns 0
T0FE4 000:591.783 JLINK_WriteReg(R5, 0x00000000)
T0FE4 000:592.368 - 0.770ms returns 0
T0FE4 000:592.745 JLINK_WriteReg(R6, 0x00000000)
T0FE4 000:593.118 - 0.575ms returns 0
T0FE4 000:593.619 JLINK_WriteReg(R7, 0x00000000)
T0FE4 000:594.164 - 0.718ms returns 0
T0FE4 000:594.525 JLINK_WriteReg(R8, 0x00000000)
T0FE4 000:595.019 - 0.815ms returns 0
T0FE4 000:595.563 JLINK_WriteReg(R9, 0x20000180)
T0FE4 000:595.910 - 0.513ms returns 0
T0FE4 000:596.257 JLINK_WriteReg(R10, 0x00000000)
T0FE4 000:596.792 - 0.827ms returns 0
T0FE4 000:597.319 JLINK_WriteReg(R11, 0x00000000)
T0FE4 000:597.859 - 0.769ms returns 0
T0FE4 000:598.411 JLINK_WriteReg(R12, 0x00000000)
T0FE4 000:598.927 - 0.739ms returns 0
T0FE4 000:599.456 JLINK_WriteReg(R13 (SP), 0x20001000)
T0FE4 000:599.890 - 0.716ms returns 0
T0FE4 000:600.407 JLINK_WriteReg(R14, 0x20000001)
T0FE4 000:600.875 - 0.654ms returns 0
T0FE4 000:601.305 JLINK_WriteReg(R15 (PC), 0x200000C0)
T0FE4 000:601.816 - 0.785ms returns 0
T0FE4 000:602.350 JLINK_WriteReg(XPSR, 0x01000000)
T0FE4 000:602.873 - 0.801ms returns 0
T0FE4 000:603.399 JLINK_WriteReg(MSP, 0x20001000)
T0FE4 000:603.937 - 0.796ms returns 0
T0FE4 000:604.451 JLINK_WriteReg(PSP, 0x20001000)
T0FE4 000:604.960 - 0.787ms returns 0
T0FE4 000:605.475 JLINK_WriteReg(CFBP, 0x00000000)
T0FE4 000:606.006 - 11.868ms returns 0
T0FE4 000:617.647 JLINK_SetBPEx(Addr = 0x20000000, Type = 0xFFFFFFF2)
T0FE4 000:618.130 - 0.714ms returns 0x00000003
T0FE4 000:618.715 JLINK_Go()
T0FE4 000:619.239   CPU_ReadMem(4 bytes @ 0xE0001000)
T0FE4 000:629.147 - 10.741ms
T0FE4 000:629.855 JLINK_IsHalted()
T0FE4 000:631.209 - 1.584ms returns FALSE
T0FE4 000:631.635 JLINK_HasError()
T0FE4 000:648.067 JLINK_IsHalted()
T0FE4 000:649.561 - 1.729ms returns FALSE
T0FE4 000:650.090 JLINK_HasError()
T0FE4 000:652.060 JLINK_IsHalted()
T0FE4 000:653.385 - 1.541ms returns FALSE
T0FE4 000:653.904 JLINK_HasError()
T0FE4 000:656.055 JLINK_IsHalted()
T0FE4 000:657.304 - 1.459ms returns FALSE
T0FE4 000:657.783 JLINK_HasError()
T0FE4 000:660.089 JLINK_IsHalted()
T0FE4 000:661.550 - 1.677ms returns FALSE
T0FE4 000:662.034 JLINK_HasError()
T0FE4 000:664.052 JLINK_IsHalted()
T0FE4 000:665.239 - 1.411ms returns FALSE
T0FE4 000:665.658 JLINK_HasError()
T0FE4 000:668.052 JLINK_IsHalted()
T0FE4 000:669.370 - 1.658ms returns FALSE
T0FE4 000:669.872 JLINK_HasError()
T0FE4 000:672.089 JLINK_IsHalted()
T0FE4 000:673.609 - 1.772ms returns FALSE
T0FE4 000:674.138 JLINK_HasError()
T0FE4 000:676.056 JLINK_IsHalted()
T0FE4 000:677.374 - 1.608ms returns FALSE
T0FE4 000:677.836 JLINK_HasError()
T0FE4 000:680.065 JLINK_IsHalted()
T0FE4 000:681.285 - 1.507ms returns FALSE
T0FE4 000:681.806 JLINK_HasError()
T0FE4 000:685.131 JLINK_IsHalted()
T0FE4 000:686.454 - 1.543ms returns FALSE
T0FE4 000:686.961 JLINK_HasError()
T0FE4 000:689.083 JLINK_IsHalted()
T0FE4 000:690.264 - 1.393ms returns FALSE
T0FE4 000:690.724 JLINK_HasError()
T0FE4 000:693.134 JLINK_IsHalted()
T0FE4 000:694.376 - 1.540ms returns FALSE
T0FE4 000:694.867 JLINK_HasError()
T0FE4 000:697.071 JLINK_IsHalted()
T0FE4 000:698.762 - 1.862ms returns FALSE
T0FE4 000:699.138 JLINK_HasError()
T0FE4 000:701.163 JLINK_IsHalted()
T0FE4 000:702.394 - 1.524ms returns FALSE
T0FE4 000:702.852 JLINK_HasError()
T0FE4 000:705.135 JLINK_IsHalted()
T0FE4 000:706.426 - 1.507ms returns FALSE
T0FE4 000:706.868 JLINK_HasError()
T0FE4 000:709.131 JLINK_IsHalted()
T0FE4 000:710.367 - 1.452ms returns FALSE
T0FE4 000:710.766 JLINK_HasError()
T0FE4 000:713.070 JLINK_IsHalted()
T0FE4 000:714.460 - 1.616ms returns FALSE
T0FE4 000:714.954 JLINK_HasError()
T0FE4 000:717.053 JLINK_IsHalted()
T0FE4 000:718.274 - 1.436ms returns FALSE
T0FE4 000:718.713 JLINK_HasError()
T0FE4 000:721.178 JLINK_IsHalted()
T0FE4 000:722.464 - 1.580ms returns FALSE
T0FE4 000:722.957 JLINK_HasError()
T0FE4 000:725.055 JLINK_IsHalted()
T0FE4 000:726.281 - 1.439ms returns FALSE
T0FE4 000:726.750 JLINK_HasError()
T0FE4 000:729.154 JLINK_IsHalted()
T0FE4 000:730.410 - 1.467ms returns FALSE
T0FE4 000:730.874 JLINK_HasError()
T0FE4 000:733.136 JLINK_IsHalted()
T0FE4 000:734.375 - 1.527ms returns FALSE
T0FE4 000:734.830 JLINK_HasError()
T0FE4 000:737.051 JLINK_IsHalted()
T0FE4 000:738.263 - 1.494ms returns FALSE
T0FE4 000:738.751 JLINK_HasError()
T0FE4 000:741.101 JLINK_IsHalted()
T0FE4 000:742.364 - 1.476ms returns FALSE
T0FE4 000:742.837 JLINK_HasError()
T0FE4 000:745.054 JLINK_IsHalted()
T0FE4 000:746.260 - 1.415ms returns FALSE
T0FE4 000:746.723 JLINK_HasError()
T0FE4 000:749.127 JLINK_IsHalted()
T0FE4 000:750.372 - 1.532ms returns FALSE
T0FE4 000:750.871 JLINK_HasError()
T0FE4 000:753.180 JLINK_IsHalted()
T0FE4 000:754.399 - 1.507ms returns FALSE
T0FE4 000:754.868 JLINK_HasError()
T0FE4 000:757.119 JLINK_IsHalted()
T0FE4 000:758.377 - 1.553ms returns FALSE
T0FE4 000:758.868 JLINK_HasError()
T0FE4 000:761.050 JLINK_IsHalted()
T0FE4 000:762.251 - 1.409ms returns FALSE
T0FE4 000:762.734 JLINK_HasError()
T0FE4 000:766.134 JLINK_IsHalted()
T0FE4 000:767.379 - 1.456ms returns FALSE
T0FE4 000:767.883 JLINK_HasError()
T0FE4 000:770.122 JLINK_IsHalted()
T0FE4 000:771.393 - 1.481ms returns FALSE
T0FE4 000:771.904 JLINK_HasError()
T0FE4 000:774.050 JLINK_IsHalted()
T0FE4 000:775.262 - 1.420ms returns FALSE
T0FE4 000:775.742 JLINK_HasError()
T0FE4 000:778.128 JLINK_IsHalted()
T0FE4 000:779.364 - 1.529ms returns FALSE
T0FE4 000:779.874 JLINK_HasError()
T0FE4 000:782.055 JLINK_IsHalted()
T0FE4 000:783.292 - 1.457ms returns FALSE
T0FE4 000:783.792 JLINK_HasError()
T0FE4 000:786.124 JLINK_IsHalted()
T0FE4 000:787.369 - 1.549ms returns FALSE
T0FE4 000:787.839 JLINK_HasError()
T0FE4 000:790.054 JLINK_IsHalted()
T0FE4 000:791.277 - 1.531ms returns FALSE
T0FE4 000:791.751 JLINK_HasError()
T0FE4 000:795.117 JLINK_IsHalted()
T0FE4 000:796.407 - 1.508ms returns FALSE
T0FE4 000:796.867 JLINK_HasError()
T0FE4 000:799.052 JLINK_IsHalted()
T0FE4 000:800.276 - 1.527ms returns FALSE
T0FE4 000:800.747 JLINK_HasError()
T0FE4 000:803.132 JLINK_IsHalted()
T0FE4 000:804.368 - 1.451ms returns FALSE
T0FE4 000:804.853 JLINK_HasError()
T0FE4 000:807.063 JLINK_IsHalted()
T0FE4 000:808.287 - 1.526ms returns FALSE
T0FE4 000:808.757 JLINK_HasError()
T0FE4 000:811.137 JLINK_IsHalted()
T0FE4 000:812.377 - 1.543ms returns FALSE
T0FE4 000:812.846 JLINK_HasError()
T0FE4 000:815.052 JLINK_IsHalted()
T0FE4 000:816.232 - 1.483ms returns FALSE
T0FE4 000:816.705 JLINK_HasError()
T0FE4 000:819.139 JLINK_IsHalted()
T0FE4 000:820.364 - 1.532ms returns FALSE
T0FE4 000:820.840 JLINK_HasError()
T0FE4 000:823.053 JLINK_IsHalted()
T0FE4 000:824.277 - 1.529ms returns FALSE
T0FE4 000:824.750 JLINK_HasError()
T0FE4 000:827.129 JLINK_IsHalted()
T0FE4 000:828.377 - 1.552ms returns FALSE
T0FE4 000:828.848 JLINK_HasError()
T0FE4 000:831.052 JLINK_IsHalted()
T0FE4 000:832.265 - 1.521ms returns FALSE
T0FE4 000:832.861 JLINK_HasError()
T0FE4 000:835.053 JLINK_IsHalted()
T0FE4 000:836.275 - 1.526ms returns FALSE
T0FE4 000:836.745 JLINK_HasError()
T0FE4 000:839.136 JLINK_IsHalted()
T0FE4 000:840.382 - 1.464ms returns FALSE
T0FE4 000:840.892 JLINK_HasError()
T0FE4 000:843.132 JLINK_IsHalted()
T0FE4 000:844.397 - 1.558ms returns FALSE
T0FE4 000:844.869 JLINK_HasError()
T0FE4 000:847.050 JLINK_IsHalted()
T0FE4 000:848.285 - 1.528ms returns FALSE
T0FE4 000:848.753 JLINK_HasError()
T0FE4 000:851.123 JLINK_IsHalted()
T0FE4 000:852.378 - 1.470ms returns FALSE
T0FE4 000:852.884 JLINK_HasError()
T0FE4 000:855.120 JLINK_IsHalted()
T0FE4 000:856.379 - 1.483ms returns FALSE
T0FE4 000:856.877 JLINK_HasError()
T0FE4 000:862.062 JLINK_IsHalted()
T0FE4 000:863.644 - 1.838ms returns FALSE
T0FE4 000:864.163 JLINK_HasError()
T0FE4 000:866.121 JLINK_IsHalted()
T0FE4 000:867.506 - 1.708ms returns FALSE
T0FE4 000:868.089 JLINK_HasError()
T0FE4 000:870.054 JLINK_IsHalted()
T0FE4 000:871.441 - 1.604ms returns FALSE
T0FE4 000:871.893 JLINK_HasError()
T0FE4 000:874.052 JLINK_IsHalted()
T0FE4 000:875.367 - 1.627ms returns FALSE
T0FE4 000:875.850 JLINK_HasError()
T0FE4 000:878.053 JLINK_IsHalted()
T0FE4 000:879.218 - 1.467ms returns FALSE
T0FE4 000:879.802 JLINK_HasError()
T0FE4 000:882.204 JLINK_IsHalted()
T0FE4 000:883.490 - 1.540ms returns FALSE
T0FE4 000:884.059 JLINK_HasError()
T0FE4 000:886.052 JLINK_IsHalted()
T0FE4 000:887.245 - 1.481ms returns FALSE
T0FE4 000:887.694 JLINK_HasError()
T0FE4 000:891.115 JLINK_IsHalted()
T0FE4 000:892.735 - 1.891ms returns FALSE
T0FE4 000:893.310 JLINK_HasError()
T0FE4 000:895.114 JLINK_IsHalted()
T0FE4 000:896.373 - 1.476ms returns FALSE
T0FE4 000:896.828 JLINK_HasError()
T0FE4 000:899.099 JLINK_IsHalted()
T0FE4 000:900.398 - 1.590ms returns FALSE
T0FE4 000:900.976 JLINK_HasError()
T0FE4 000:903.054 JLINK_IsHalted()
T0FE4 000:904.259 - 1.500ms returns FALSE
T0FE4 000:904.844 JLINK_HasError()
T0FE4 000:907.053 JLINK_IsHalted()
T0FE4 000:908.287 - 1.547ms returns FALSE
T0FE4 000:908.784 JLINK_HasError()
T0FE4 000:911.070 JLINK_IsHalted()
T0FE4 000:912.380 - 1.616ms returns FALSE
T0FE4 000:912.861 JLINK_HasError()
T0FE4 000:915.053 JLINK_IsHalted()
T0FE4 000:916.280 - 1.442ms returns FALSE
T0FE4 000:916.776 JLINK_HasError()
T0FE4 000:919.054 JLINK_IsHalted()
T0FE4 000:920.304 - 1.551ms returns FALSE
T0FE4 000:920.780 JLINK_HasError()
T0FE4 000:923.124 JLINK_IsHalted()
T0FE4 000:924.413 - 1.587ms returns FALSE
T0FE4 000:924.891 JLINK_HasError()
T0FE4 000:927.052 JLINK_IsHalted()
T0FE4 000:928.445 - 1.689ms returns FALSE
T0FE4 000:928.917 JLINK_HasError()
T0FE4 000:931.053 JLINK_IsHalted()
T0FE4 000:932.404 - 1.568ms returns FALSE
T0FE4 000:932.902 JLINK_HasError()
T0FE4 000:935.052 JLINK_IsHalted()
T0FE4 000:936.407 - 1.571ms returns FALSE
T0FE4 000:936.908 JLINK_HasError()
T0FE4 000:940.054 JLINK_IsHalted()
T0FE4 000:941.305 - 1.465ms returns FALSE
T0FE4 000:941.810 JLINK_HasError()
T0FE4 000:944.052 JLINK_IsHalted()
T0FE4 000:945.243 - 1.483ms returns FALSE
T0FE4 000:945.743 JLINK_HasError()
T0FE4 000:948.053 JLINK_IsHalted()
T0FE4 000:949.296 - 1.462ms returns FALSE
T0FE4 000:949.738 JLINK_HasError()
T0FE4 000:952.059 JLINK_IsHalted()
T0FE4 000:953.307 - 1.465ms returns FALSE
T0FE4 000:953.747 JLINK_HasError()
T0FE4 000:956.053 JLINK_IsHalted()
T0FE4 000:957.286 - 1.449ms returns FALSE
T0FE4 000:957.726 JLINK_HasError()
T0FE4 000:960.053 JLINK_IsHalted()
T0FE4 000:961.283 - 1.485ms returns FALSE
T0FE4 000:961.846 JLINK_HasError()
T0FE4 000:964.052 JLINK_IsHalted()
T0FE4 000:965.283 - 1.486ms returns FALSE
T0FE4 000:965.717 JLINK_HasError()
T0FE4 000:968.061 JLINK_IsHalted()
T0FE4 000:969.324 - 1.481ms returns FALSE
T0FE4 000:969.827 JLINK_HasError()
T0FE4 000:972.053 JLINK_IsHalted()
T0FE4 000:973.487 - 1.739ms returns FALSE
T0FE4 000:973.969 JLINK_HasError()
T0FE4 000:976.054 JLINK_IsHalted()
T0FE4 000:985.395   CPU_ReadMem(2 bytes @ 0x20000000)
T0FE4 000:986.821 - 11.068ms returns TRUE
T0FE4 000:987.292 JLINK_ReadReg(R15 (PC))
T0FE4 000:987.819 - 0.787ms returns 0x20000000
T0FE4 000:988.365 JLINK_ClrBPEx(BPHandle = 0x00000003)
T0FE4 000:988.885 - 0.774ms returns 0x00
T0FE4 000:989.422 JLINK_ReadReg(R0)
T0FE4 000:989.931 - 0.765ms returns 0x00000000
T0FE4 000:990.984 JLINK_HasError()
T0FE4 000:991.433 JLINK_WriteReg(R0, 0x00000001)
T0FE4 000:991.980 - 0.802ms returns 0
T0FE4 000:992.508 JLINK_WriteReg(R1, 0x00004000)
T0FE4 000:993.030 - 0.775ms returns 0
T0FE4 000:993.560 JLINK_WriteReg(R2, 0x000000FF)
T0FE4 000:994.083 - 0.775ms returns 0
T0FE4 000:994.605 JLINK_WriteReg(R3, 0x00000000)
T0FE4 000:995.075 - 0.653ms returns 0
T0FE4 000:995.446 JLINK_WriteReg(R4, 0x00000000)
T0FE4 000:995.977 - 0.720ms returns 0
T0FE4 000:996.502 JLINK_WriteReg(R5, 0x00000000)
T0FE4 000:997.025 - 1.907ms returns 0
T0FE4 000:998.583 JLINK_WriteReg(R6, 0x00000000)
T0FE4 000:999.096 - 0.765ms returns 0
T0FE4 000:999.626 JLINK_WriteReg(R7, 0x00000000)
T0FE4 001:000.141 - 0.805ms returns 0
T0FE4 001:000.682 JLINK_WriteReg(R8, 0x00000000)
T0FE4 001:001.200 - 0.822ms returns 0
T0FE4 001:001.787 JLINK_WriteReg(R9, 0x20000180)
T0FE4 001:002.322 - 0.801ms returns 0
T0FE4 001:003.220 JLINK_WriteReg(R10, 0x00000000)
T0FE4 001:003.781 - 0.739ms returns 0
T0FE4 001:004.157 JLINK_WriteReg(R11, 0x00000000)
T0FE4 001:004.667 - 0.767ms returns 0
T0FE4 001:005.126 JLINK_WriteReg(R12, 0x00000000)
T0FE4 001:005.728 - 0.857ms returns 0
T0FE4 001:006.261 JLINK_WriteReg(R13 (SP), 0x20001000)
T0FE4 001:006.780 - 0.780ms returns 0
T0FE4 001:007.312 JLINK_WriteReg(R14, 0x20000001)
T0FE4 001:007.820 - 0.768ms returns 0
T0FE4 001:008.358 JLINK_WriteReg(R15 (PC), 0x20000086)
T0FE4 001:008.876 - 0.769ms returns 0
T0FE4 001:009.402 JLINK_WriteReg(XPSR, 0x01000000)
T0FE4 001:009.920 - 0.772ms returns 0
T0FE4 001:010.449 JLINK_WriteReg(MSP, 0x20001000)
T0FE4 001:011.001 - 0.802ms returns 0
T0FE4 001:011.539 JLINK_WriteReg(PSP, 0x20001000)
T0FE4 001:012.069 - 0.726ms returns 0
T0FE4 001:012.576 JLINK_WriteReg(CFBP, 0x00000000)
T0FE4 001:013.197 - 0.801ms returns 0
T0FE4 001:013.614 JLINK_SetBPEx(Addr = 0x20000000, Type = 0xFFFFFFF2)
T0FE4 001:013.971 - 0.521ms returns 0x00000004
T0FE4 001:014.311 JLINK_Go()
T0FE4 001:014.680   CPU_ReadMem(4 bytes @ 0xE0001000)
T0FE4 001:024.291 - 10.274ms
T0FE4 001:024.781 JLINK_IsHalted()
T0FE4 001:034.225   CPU_ReadMem(2 bytes @ 0x20000000)
T0FE4 001:036.075 - 11.603ms returns TRUE
T0FE4 001:036.565 JLINK_ReadReg(R15 (PC))
T0FE4 001:036.948 - 0.562ms returns 0x20000000
T0FE4 001:037.343 JLINK_ClrBPEx(BPHandle = 0x00000004)
T0FE4 001:037.688 - 0.524ms returns 0x00
T0FE4 001:038.076 JLINK_ReadReg(R0)
T0FE4 001:038.566 - 0.671ms returns 0x00000000
T0FE4 001:096.583 JLINK_WriteMem(0x20000000, 0x184 Bytes, ...)
T0FE4 001:097.275   Data:  00 BE 0A E0 0D 78 2D 06 68 40 08 24 40 00 00 D3 ...
T0FE4 001:098.199   CPU_WriteMem(388 bytes @ 0x20000000)
T0FE4 001:107.376 - 11.275ms returns 0x184
T0FE4 001:108.485 JLINK_HasError()
T0FE4 001:108.985 JLINK_WriteReg(R0, 0x08000000)
T0FE4 001:109.338 - 0.524ms returns 0
T0FE4 001:109.676 JLINK_WriteReg(R1, 0x017D7840)
T0FE4 001:110.021 - 0.624ms returns 0
T0FE4 001:110.482 JLINK_WriteReg(R2, 0x00000002)
T0FE4 001:110.876 - 0.599ms returns 0
T0FE4 001:111.412 JLINK_WriteReg(R3, 0x00000000)
T0FE4 001:111.843 - 0.685ms returns 0
T0FE4 001:112.355 JLINK_WriteReg(R4, 0x00000000)
T0FE4 001:112.798 - 0.644ms returns 0
T0FE4 001:113.215 JLINK_WriteReg(R5, 0x00000000)
T0FE4 001:113.649 - 0.690ms returns 0
T0FE4 001:114.067 JLINK_WriteReg(R6, 0x00000000)
T0FE4 001:114.534 - 0.651ms returns 0
T0FE4 001:114.902 JLINK_WriteReg(R7, 0x00000000)
T0FE4 001:115.266 - 0.542ms returns 0
T0FE4 001:115.638 JLINK_WriteReg(R8, 0x00000000)
T0FE4 001:116.037 - 0.556ms returns 0
T0FE4 001:116.363 JLINK_WriteReg(R9, 0x20000180)
T0FE4 001:116.705 - 0.507ms returns 0
T0FE4 001:117.049 JLINK_WriteReg(R10, 0x00000000)
T0FE4 001:117.396 - 0.505ms returns 0
T0FE4 001:117.744 JLINK_WriteReg(R11, 0x00000000)
T0FE4 001:118.572 - 1.072ms returns 0
T0FE4 001:119.098 JLINK_WriteReg(R12, 0x00000000)
T0FE4 001:119.660 - 0.803ms returns 0
T0FE4 001:120.261 JLINK_WriteReg(R13 (SP), 0x20001000)
T0FE4 001:120.726 - 0.679ms returns 0
T0FE4 001:121.119 JLINK_WriteReg(R14, 0x20000001)
T0FE4 001:121.513 - 0.565ms returns 0
T0FE4 001:121.852 JLINK_WriteReg(R15 (PC), 0x20000054)
T0FE4 001:122.361 - 0.690ms returns 0
T0FE4 001:122.719 JLINK_WriteReg(XPSR, 0x01000000)
T0FE4 001:123.086 - 0.560ms returns 0
T0FE4 001:123.471 JLINK_WriteReg(MSP, 0x20001000)
T0FE4 001:123.981 - 0.857ms returns 0
T0FE4 001:124.517 JLINK_WriteReg(PSP, 0x20001000)
T0FE4 001:124.890 - 0.533ms returns 0
T0FE4 001:125.244 JLINK_WriteReg(CFBP, 0x00000000)
T0FE4 001:125.738 - 0.949ms returns 0
T0FE4 001:126.557 JLINK_SetBPEx(Addr = 0x20000000, Type = 0xFFFFFFF2)
T0FE4 001:126.957   CPU_ReadMem(2 bytes @ 0x20000000)
T0FE4 001:128.381 - 2.039ms returns 0x00000005
T0FE4 001:128.859 JLINK_Go()
T0FE4 001:129.348   CPU_WriteMem(2 bytes @ 0x20000000)
T0FE4 001:130.942   CPU_ReadMem(4 bytes @ 0xE0001000)
T0FE4 001:140.472 - 11.995ms
T0FE4 001:141.007 JLINK_IsHalted()
T0FE4 001:150.508   CPU_ReadMem(2 bytes @ 0x20000000)
T0FE4 001:151.959 - 11.172ms returns TRUE
T0FE4 001:152.500 JLINK_ReadReg(R15 (PC))
T0FE4 001:152.889 - 0.656ms returns 0x20000000
T0FE4 001:153.423 JLINK_ClrBPEx(BPHandle = 0x00000005)
T0FE4 001:153.798 - 0.549ms returns 0x00
T0FE4 001:154.172 JLINK_ReadReg(R0)
T0FE4 001:154.701 - 0.802ms returns 0x00000000
T0FE4 001:155.603 JLINK_WriteMem(0x20000184, 0x27C Bytes, ...)
T0FE4 001:156.056   Data:  10 4E 00 20 71 02 00 08 CF 12 00 08 93 10 00 08 ...
T0FE4 001:156.644   CPU_WriteMem(636 bytes @ 0x20000184)
T0FE4 001:169.786 - 14.534ms returns 0x27C
T0FE4 001:170.328 JLINK_WriteMem(0x20000400, 0x184 Bytes, ...)
T0FE4 001:170.675   Data:  FE E7 FE E7 FE E7 FE E7 FE E7 FE E7 FE E7 FE E7 ...
T0FE4 001:171.247   CPU_WriteMem(388 bytes @ 0x20000400)
T0FE4 001:180.066 - 10.131ms returns 0x184
T0FE4 001:180.613 JLINK_HasError()
T0FE4 001:181.142 JLINK_WriteReg(R0, 0x08000000)
T0FE4 001:181.515 - 0.530ms returns 0
T0FE4 001:181.879 JLINK_WriteReg(R1, 0x00000400)
T0FE4 001:182.223 - 0.506ms returns 0
T0FE4 001:182.602 JLINK_WriteReg(R2, 0x20000184)
T0FE4 001:183.029 - 0.606ms returns 0
T0FE4 001:183.437 JLINK_WriteReg(R3, 0x00000000)
T0FE4 001:183.768 - 0.634ms returns 0
T0FE4 001:184.299 JLINK_WriteReg(R4, 0x00000000)
T0FE4 001:184.627 - 0.488ms returns 0
T0FE4 001:184.956 JLINK_WriteReg(R5, 0x00000000)
T0FE4 001:185.290 - 0.496ms returns 0
T0FE4 001:185.630 JLINK_WriteReg(R6, 0x00000000)
T0FE4 001:185.975 - 0.506ms returns 0
T0FE4 001:186.311 JLINK_WriteReg(R7, 0x00000000)
T0FE4 001:186.644 - 0.494ms returns 0
T0FE4 001:186.982 JLINK_WriteReg(R8, 0x00000000)
T0FE4 001:187.316 - 0.497ms returns 0
T0FE4 001:187.660 JLINK_WriteReg(R9, 0x20000180)
T0FE4 001:187.990 - 0.491ms returns 0
T0FE4 001:188.329 JLINK_WriteReg(R10, 0x00000000)
T0FE4 001:188.656 - 0.490ms returns 0
T0FE4 001:188.997 JLINK_WriteReg(R11, 0x00000000)
T0FE4 001:189.331 - 0.523ms returns 0
T0FE4 001:189.691 JLINK_WriteReg(R12, 0x00000000)
T0FE4 001:190.025 - 0.500ms returns 0
T0FE4 001:190.341 JLINK_WriteReg(R13 (SP), 0x20001000)
T0FE4 001:190.695 - 0.622ms returns 0
T0FE4 001:191.214 JLINK_WriteReg(R14, 0x20000001)
T0FE4 001:191.576 - 0.527ms returns 0
T0FE4 001:192.075 JLINK_WriteReg(R15 (PC), 0x2000010C)
T0FE4 001:192.453 - 0.538ms returns 0
T0FE4 001:192.783 JLINK_WriteReg(XPSR, 0x01000000)
T0FE4 001:193.116 - 0.503ms returns 0
T0FE4 001:193.469 JLINK_WriteReg(MSP, 0x20001000)
T0FE4 001:193.792 - 0.482ms returns 0
T0FE4 001:194.133 JLINK_WriteReg(PSP, 0x20001000)
T0FE4 001:194.470 - 0.493ms returns 0
T0FE4 001:194.797 JLINK_WriteReg(CFBP, 0x00000000)
T0FE4 001:195.123 - 0.497ms returns 0
T0FE4 001:195.464 JLINK_SetBPEx(Addr = 0x20000000, Type = 0xFFFFFFF2)
T0FE4 001:195.809 - 0.515ms returns 0x00000006
T0FE4 001:196.153 JLINK_Go()
T0FE4 001:196.499   CPU_ReadMem(4 bytes @ 0xE0001000)
T0FE4 001:206.174 - 10.385ms
T0FE4 001:206.810 JLINK_IsHalted()
T0FE4 001:207.970 - 1.398ms returns FALSE
T0FE4 001:208.531 JLINK_HasError()
T0FE4 001:213.170 JLINK_IsHalted()
T0FE4 001:223.083   CPU_ReadMem(2 bytes @ 0x20000000)
T0FE4 001:224.541 - 11.753ms returns TRUE
T0FE4 001:225.091 JLINK_ReadReg(R15 (PC))
T0FE4 001:225.494 - 0.746ms returns 0x20000000
T0FE4 001:226.045 JLINK_ClrBPEx(BPHandle = 0x00000006)
T0FE4 001:226.672 - 0.863ms returns 0x00
T0FE4 001:227.200 JLINK_ReadReg(R0)
T0FE4 001:227.725 - 0.752ms returns 0x00000000
T0FE4 001:228.664 JLINK_WriteMem(0x20000184, 0x27C Bytes, ...)
T0FE4 001:229.312   Data:  0E 79 C6 F3 00 16 96 40 3E 43 46 60 0E 79 F6 43 ...
T0FE4 001:230.155   CPU_WriteMem(636 bytes @ 0x20000184)
T0FE4 001:243.556 - 15.256ms returns 0x27C
T0FE4 001:244.264 JLINK_WriteMem(0x20000400, 0x184 Bytes, ...)
T0FE4 001:244.830   Data:  00 00 01 40 F0 00 00 20 14 00 00 20 0C 48 82 B0 ...
T0FE4 001:245.721   CPU_WriteMem(388 bytes @ 0x20000400)
T0FE4 001:254.611 - 10.652ms returns 0x184
T0FE4 001:255.192 JLINK_HasError()
T0FE4 001:255.800 JLINK_WriteReg(R0, 0x08000400)
T0FE4 001:256.412 - 0.838ms returns 0
T0FE4 001:256.981 JLINK_WriteReg(R1, 0x00000400)
T0FE4 001:257.514 - 0.787ms returns 0
T0FE4 001:258.050 JLINK_WriteReg(R2, 0x20000184)
T0FE4 001:258.575 - 0.789ms returns 0
T0FE4 001:259.076 JLINK_WriteReg(R3, 0x00000000)
T0FE4 001:259.439 - 0.710ms returns 0
T0FE4 001:260.053 JLINK_WriteReg(R4, 0x00000000)
T0FE4 001:260.567 - 0.793ms returns 0
T0FE4 001:261.113 JLINK_WriteReg(R5, 0x00000000)
T0FE4 001:261.643 - 0.790ms returns 0
T0FE4 001:262.156 JLINK_WriteReg(R6, 0x00000000)
T0FE4 001:262.674 - 0.778ms returns 0
T0FE4 001:263.224 JLINK_WriteReg(R7, 0x00000000)
T0FE4 001:263.744 - 0.798ms returns 0
T0FE4 001:264.298 JLINK_WriteReg(R8, 0x00000000)
T0FE4 001:264.832 - 0.815ms returns 0
T0FE4 001:265.381 JLINK_WriteReg(R9, 0x20000180)
T0FE4 001:265.919 - 0.808ms returns 0
T0FE4 001:266.446 JLINK_WriteReg(R10, 0x00000000)
T0FE4 001:266.968 - 0.793ms returns 0
T0FE4 001:267.518 JLINK_WriteReg(R11, 0x00000000)
T0FE4 001:268.049 - 0.807ms returns 0
T0FE4 001:268.596 JLINK_WriteReg(R12, 0x00000000)
T0FE4 001:269.123 - 0.801ms returns 0
T0FE4 001:269.660 JLINK_WriteReg(R13 (SP), 0x20001000)
T0FE4 001:270.206 - 0.816ms returns 0
T0FE4 001:270.754 JLINK_WriteReg(R14, 0x20000001)
T0FE4 001:271.273 - 0.776ms returns 0
T0FE4 001:271.783 JLINK_WriteReg(R15 (PC), 0x2000010C)
T0FE4 001:272.307 - 0.790ms returns 0
T0FE4 001:272.740 JLINK_WriteReg(XPSR, 0x01000000)
T0FE4 001:273.096 - 0.548ms returns 0
T0FE4 001:273.460 JLINK_WriteReg(MSP, 0x20001000)
T0FE4 001:274.010 - 0.696ms returns 0
T0FE4 001:274.364 JLINK_WriteReg(PSP, 0x20001000)
T0FE4 001:274.851 - 0.650ms returns 0
T0FE4 001:275.179 JLINK_WriteReg(CFBP, 0x00000000)
T0FE4 001:275.521 - 0.501ms returns 0
T0FE4 001:275.850 JLINK_SetBPEx(Addr = 0x20000000, Type = 0xFFFFFFF2)
T0FE4 001:276.179 - 0.489ms returns 0x00000007
T0FE4 001:276.511 JLINK_Go()
T0FE4 001:276.866   CPU_ReadMem(4 bytes @ 0xE0001000)
T0FE4 001:286.476 - 10.388ms
T0FE4 001:287.131 JLINK_IsHalted()
T0FE4 001:288.368 - 1.451ms returns FALSE
T0FE4 001:288.805 JLINK_HasError()
T0FE4 001:293.228 JLINK_IsHalted()
T0FE4 001:302.746   CPU_ReadMem(2 bytes @ 0x20000000)
T0FE4 001:304.411 - 11.448ms returns TRUE
T0FE4 001:304.917 JLINK_ReadReg(R15 (PC))
T0FE4 001:305.356 - 0.624ms returns 0x20000000
T0FE4 001:305.717 JLINK_ClrBPEx(BPHandle = 0x00000007)
T0FE4 001:306.058 - 0.509ms returns 0x00
T0FE4 001:306.406 JLINK_ReadReg(R0)
T0FE4 001:306.758 - 0.524ms returns 0x00000000
T0FE4 001:307.798 JLINK_WriteMem(0x20000184, 0x27C Bytes, ...)
T0FE4 001:308.273   Data:  40 46 01 F0 07 01 B1 42 07 D9 07 70 00 68 00 F0 ...
T0FE4 001:308.894   CPU_WriteMem(636 bytes @ 0x20000184)
T0FE4 001:322.101 - 14.700ms returns 0x27C
T0FE4 001:322.781 JLINK_WriteMem(0x20000400, 0x184 Bytes, ...)
T0FE4 001:323.154   Data:  06 46 04 E0 FF F7 94 FD 80 1B 02 28 1F D8 28 68 ...
T0FE4 001:323.904   CPU_WriteMem(388 bytes @ 0x20000400)
T0FE4 001:332.629 - 10.162ms returns 0x184
T0FE4 001:333.167 JLINK_HasError()
T0FE4 001:333.718 JLINK_WriteReg(R0, 0x08000800)
T0FE4 001:334.218 - 0.678ms returns 0
T0FE4 001:334.594 JLINK_WriteReg(R1, 0x00000400)
T0FE4 001:335.027 - 0.647ms returns 0
T0FE4 001:335.417 JLINK_WriteReg(R2, 0x20000184)
T0FE4 001:335.753 - 0.509ms returns 0
T0FE4 001:336.097 JLINK_WriteReg(R3, 0x00000000)
T0FE4 001:336.440 - 0.501ms returns 0
T0FE4 001:336.772 JLINK_WriteReg(R4, 0x00000000)
T0FE4 001:337.098 - 0.488ms returns 0
T0FE4 001:337.436 JLINK_WriteReg(R5, 0x00000000)
T0FE4 001:337.779 - 0.511ms returns 0
T0FE4 001:338.122 JLINK_WriteReg(R6, 0x00000000)
T0FE4 001:338.479 - 0.519ms returns 0
T0FE4 001:338.807 JLINK_WriteReg(R7, 0x00000000)
T0FE4 001:339.137 - 0.497ms returns 0
T0FE4 001:339.485 JLINK_WriteReg(R8, 0x00000000)
T0FE4 001:339.810 - 0.504ms returns 0
T0FE4 001:340.184 JLINK_WriteReg(R9, 0x20000180)
T0FE4 001:340.519 - 0.504ms returns 0
T0FE4 001:340.857 JLINK_WriteReg(R10, 0x00000000)
T0FE4 001:341.213 - 0.518ms returns 0
T0FE4 001:341.545 JLINK_WriteReg(R11, 0x00000000)
T0FE4 001:341.876 - 0.521ms returns 0
T0FE4 001:342.350 JLINK_WriteReg(R12, 0x00000000)
T0FE4 001:342.749 - 0.621ms returns 0
T0FE4 001:343.141 JLINK_WriteReg(R13 (SP), 0x20001000)
T0FE4 001:343.496 - 0.513ms returns 0
T0FE4 001:343.836 JLINK_WriteReg(R14, 0x20000001)
T0FE4 001:344.356 - 0.671ms returns 0
T0FE4 001:344.677 JLINK_WriteReg(R15 (PC), 0x2000010C)
T0FE4 001:345.015 - 0.509ms returns 0
T0FE4 001:345.373 JLINK_WriteReg(XPSR, 0x01000000)
T0FE4 001:345.713 - 0.504ms returns 0
T0FE4 001:346.075 JLINK_WriteReg(MSP, 0x20001000)
T0FE4 001:346.575 - 0.665ms returns 0
T0FE4 001:346.923 JLINK_WriteReg(PSP, 0x20001000)
T0FE4 001:347.258 - 0.498ms returns 0
T0FE4 001:347.601 JLINK_WriteReg(CFBP, 0x00000000)
T0FE4 001:348.143 - 0.766ms returns 0
T0FE4 001:348.725 JLINK_SetBPEx(Addr = 0x20000000, Type = 0xFFFFFFF2)
T0FE4 001:349.294 - 0.834ms returns 0x00000008
T0FE4 001:349.839 JLINK_Go()
T0FE4 001:350.389   CPU_ReadMem(4 bytes @ 0xE0001000)
T0FE4 001:360.491 - 10.982ms
T0FE4 001:361.018 JLINK_IsHalted()
T0FE4 001:362.403 - 1.672ms returns FALSE
T0FE4 001:362.995 JLINK_HasError()
T0FE4 001:366.209 JLINK_IsHalted()
T0FE4 001:375.955   CPU_ReadMem(2 bytes @ 0x20000000)
T0FE4 001:377.567 - 11.580ms returns TRUE
T0FE4 001:378.015 JLINK_ReadReg(R15 (PC))
T0FE4 001:378.528 - 0.797ms returns 0x20000000
T0FE4 001:379.097 JLINK_ClrBPEx(BPHandle = 0x00000008)
T0FE4 001:379.583 - 0.784ms returns 0x00
T0FE4 001:380.105 JLINK_ReadReg(R0)
T0FE4 001:380.616 - 0.797ms returns 0x00000000
T0FE4 001:381.736 JLINK_WriteMem(0x20000184, 0x27C Bytes, ...)
T0FE4 001:382.193   Data:  08 43 A1 6A 2E 4A 49 08 02 EB 01 41 62 6A 41 EA ...
T0FE4 001:382.936   CPU_WriteMem(636 bytes @ 0x20000184)
T0FE4 001:396.439 - 15.064ms returns 0x27C
T0FE4 001:396.962 JLINK_WriteMem(0x20000400, 0x184 Bytes, ...)
T0FE4 001:397.277   Data:  20 68 01 69 C9 43 C9 07 08 D1 C1 68 C9 43 C9 07 ...
T0FE4 001:397.872   CPU_WriteMem(388 bytes @ 0x20000400)
T0FE4 001:406.584 - 9.989ms returns 0x184
T0FE4 001:407.213 JLINK_HasError()
T0FE4 001:407.580 JLINK_WriteReg(R0, 0x08000C00)
T0FE4 001:408.094 - 0.783ms returns 0
T0FE4 001:408.599 JLINK_WriteReg(R1, 0x00000400)
T0FE4 001:408.970 - 0.533ms returns 0
T0FE4 001:409.316 JLINK_WriteReg(R2, 0x20000184)
T0FE4 001:409.689 - 0.671ms returns 0
T0FE4 001:410.184 JLINK_WriteReg(R3, 0x00000000)
T0FE4 001:410.519 - 0.497ms returns 0
T0FE4 001:410.867 JLINK_WriteReg(R4, 0x00000000)
T0FE4 001:411.240 - 0.543ms returns 0
T0FE4 001:411.629 JLINK_WriteReg(R5, 0x00000000)
T0FE4 001:412.123 - 0.672ms returns 0
T0FE4 001:412.478 JLINK_WriteReg(R6, 0x00000000)
T0FE4 001:412.852 - 0.550ms returns 0
T0FE4 001:413.214 JLINK_WriteReg(R7, 0x00000000)
T0FE4 001:413.697 - 0.652ms returns 0
T0FE4 001:414.057 JLINK_WriteReg(R8, 0x00000000)
T0FE4 001:414.414 - 0.512ms returns 0
T0FE4 001:414.713 JLINK_WriteReg(R9, 0x20000180)
T0FE4 001:415.062 - 0.528ms returns 0
T0FE4 001:415.431 JLINK_WriteReg(R10, 0x00000000)
T0FE4 001:415.808 - 0.597ms returns 0
T0FE4 001:416.299 JLINK_WriteReg(R11, 0x00000000)
T0FE4 001:416.741 - 0.624ms returns 0
T0FE4 001:417.143 JLINK_WriteReg(R12, 0x00000000)
T0FE4 001:417.519 - 0.684ms returns 0
T0FE4 001:418.090 JLINK_WriteReg(R13 (SP), 0x20001000)
T0FE4 001:418.490 - 0.727ms returns 0
T0FE4 001:419.013 JLINK_WriteReg(R14, 0x20000001)
T0FE4 001:419.529 - 0.829ms returns 0
T0FE4 001:420.230 JLINK_WriteReg(R15 (PC), 0x2000010C)
T0FE4 001:420.753 - 0.795ms returns 0
T0FE4 001:421.255 JLINK_WriteReg(XPSR, 0x01000000)
T0FE4 001:421.737 - 0.683ms returns 0
T0FE4 001:422.271 JLINK_WriteReg(MSP, 0x20001000)
T0FE4 001:422.701 - 0.741ms returns 0
T0FE4 001:423.207 JLINK_WriteReg(PSP, 0x20001000)
T0FE4 001:423.718 - 0.822ms returns 0
T0FE4 001:424.409 JLINK_WriteReg(CFBP, 0x00000000)
T0FE4 001:424.932 - 0.772ms returns 0
T0FE4 001:425.463 JLINK_SetBPEx(Addr = 0x20000000, Type = 0xFFFFFFF2)
T0FE4 001:425.994 - 0.766ms returns 0x00000009
T0FE4 001:426.520 JLINK_Go()
T0FE4 001:427.148   CPU_ReadMem(4 bytes @ 0xE0001000)
T0FE4 001:437.135 - 10.907ms
T0FE4 001:437.751 JLINK_IsHalted()
T0FE4 001:438.943 - 1.443ms returns FALSE
T0FE4 001:439.418 JLINK_HasError()
T0FE4 001:445.061 JLINK_IsHalted()
T0FE4 001:454.591   CPU_ReadMem(2 bytes @ 0x20000000)
T0FE4 001:456.030 - 11.184ms returns TRUE
T0FE4 001:456.540 JLINK_ReadReg(R15 (PC))
T0FE4 001:457.067 - 0.798ms returns 0x20000000
T0FE4 001:457.612 JLINK_ClrBPEx(BPHandle = 0x00000009)
T0FE4 001:458.155 - 0.806ms returns 0x00
T0FE4 001:458.684 JLINK_ReadReg(R0)
T0FE4 001:459.203 - 0.706ms returns 0x00000000
T0FE4 001:460.246 JLINK_WriteMem(0x20000184, 0x27C Bytes, ...)
T0FE4 001:460.751   Data:  01 20 84 F8 3C 00 4F F0 00 08 C4 F8 40 80 21 20 ...
T0FE4 001:461.574   CPU_WriteMem(636 bytes @ 0x20000184)
T0FE4 001:475.133 - 15.180ms returns 0x27C
T0FE4 001:475.613 JLINK_WriteMem(0x20000400, 0x184 Bytes, ...)
T0FE4 001:476.057   Data:  69 46 30 46 03 94 FF F7 91 F8 06 B0 70 BD 00 00 ...
T0FE4 001:477.072   CPU_WriteMem(388 bytes @ 0x20000400)
T0FE4 001:485.922 - 10.641ms returns 0x184
T0FE4 001:486.444 JLINK_HasError()
T0FE4 001:486.790 JLINK_WriteReg(R0, 0x08001000)
T0FE4 001:487.116 - 0.499ms returns 0
T0FE4 001:487.465 JLINK_WriteReg(R1, 0x00000400)
T0FE4 001:487.825 - 0.532ms returns 0
T0FE4 001:488.177 JLINK_WriteReg(R2, 0x20000184)
T0FE4 001:488.542 - 0.551ms returns 0
T0FE4 001:488.914 JLINK_WriteReg(R3, 0x00000000)
T0FE4 001:489.246 - 0.502ms returns 0
T0FE4 001:489.597 JLINK_WriteReg(R4, 0x00000000)
T0FE4 001:490.100 - 0.758ms returns 0
T0FE4 001:490.544 JLINK_WriteReg(R5, 0x00000000)
T0FE4 001:490.905 - 0.586ms returns 0
T0FE4 001:491.441 JLINK_WriteReg(R6, 0x00000000)
T0FE4 001:491.809 - 0.524ms returns 0
T0FE4 001:492.222 JLINK_WriteReg(R7, 0x00000000)
T0FE4 001:492.748 - 0.671ms returns 0
T0FE4 001:493.057 JLINK_WriteReg(R8, 0x00000000)
T0FE4 001:493.480 - 0.671ms returns 0
T0FE4 001:493.881 JLINK_WriteReg(R9, 0x20000180)
T0FE4 001:494.209 - 0.488ms returns 0
T0FE4 001:494.613 JLINK_WriteReg(R10, 0x00000000)
T0FE4 001:494.927 - 0.469ms returns 0
T0FE4 001:495.332 JLINK_WriteReg(R11, 0x00000000)
T0FE4 001:495.607 - 0.509ms returns 0
T0FE4 001:496.003 JLINK_WriteReg(R12, 0x00000000)
T0FE4 001:496.366 - 0.611ms returns 0
T0FE4 001:496.757 JLINK_WriteReg(R13 (SP), 0x20001000)
T0FE4 001:497.158 - 0.544ms returns 0
T0FE4 001:497.443 JLINK_WriteReg(R14, 0x20000001)
T0FE4 001:497.848 - 0.537ms returns 0
T0FE4 001:498.120 JLINK_WriteReg(R15 (PC), 0x2000010C)
T0FE4 001:498.525 - 0.539ms returns 0
T0FE4 001:498.836 JLINK_WriteReg(XPSR, 0x01000000)
T0FE4 001:499.242 - 0.546ms returns 0
T0FE4 001:499.527 JLINK_WriteReg(MSP, 0x20001000)
T0FE4 001:499.963 - 0.587ms returns 0
T0FE4 001:500.304 JLINK_WriteReg(PSP, 0x20001000)
T0FE4 001:500.701 - 0.538ms returns 0
T0FE4 001:500.985 JLINK_WriteReg(CFBP, 0x00000000)
T0FE4 001:501.354 - 0.578ms returns 0
T0FE4 001:501.818 JLINK_SetBPEx(Addr = 0x20000000, Type = 0xFFFFFFF2)
T0FE4 001:502.105 - 0.464ms returns 0x0000000A
T0FE4 001:502.534 JLINK_Go()
T0FE4 001:502.869   CPU_ReadMem(4 bytes @ 0xE0001000)
T0FE4 001:512.430 - 10.227ms
T0FE4 001:512.958 JLINK_IsHalted()
T0FE4 001:514.029 - 1.297ms returns FALSE
T0FE4 001:514.530 JLINK_HasError()
T0FE4 001:516.051 JLINK_IsHalted()
T0FE4 001:525.522   CPU_ReadMem(2 bytes @ 0x20000000)
T0FE4 001:527.198 - 11.366ms returns TRUE
T0FE4 001:527.714 JLINK_ReadReg(R15 (PC))
T0FE4 001:528.187 - 0.707ms returns 0x20000000
T0FE4 001:528.688 JLINK_ClrBPEx(BPHandle = 0x0000000A)
T0FE4 001:529.009 - 0.585ms returns 0x00
T0FE4 001:529.439 JLINK_ReadReg(R0)
T0FE4 001:529.763 - 0.504ms returns 0x00000000
T0FE4 001:530.943 JLINK_WriteMem(0x20000184, 0x27C Bytes, ...)
T0FE4 001:531.444   Data:  41 F4 70 01 01 60 70 47 88 ED 00 E0 01 48 FF F7 ...
T0FE4 001:532.215   CPU_WriteMem(636 bytes @ 0x20000184)
T0FE4 001:545.542 - 14.896ms returns 0x27C
T0FE4 001:546.095 JLINK_WriteMem(0x20000400, 0x184 Bytes, ...)
T0FE4 001:546.482   Data:  01 C1 12 1F 00 2A FB D1 70 47 2D E9 F0 41 16 46 ...
T0FE4 001:547.082   CPU_WriteMem(388 bytes @ 0x20000400)
T0FE4 001:555.991 - 10.239ms returns 0x184
T0FE4 001:556.680 JLINK_HasError()
T0FE4 001:557.348 JLINK_WriteReg(R0, 0x08001400)
T0FE4 001:557.892 - 0.677ms returns 0
T0FE4 001:558.180 JLINK_WriteReg(R1, 0x00000400)
T0FE4 001:558.605 - 0.631ms returns 0
T0FE4 001:559.025 JLINK_WriteReg(R2, 0x20000184)
T0FE4 001:559.443 - 0.627ms returns 0
T0FE4 001:559.991 JLINK_WriteReg(R3, 0x00000000)
